[Version] 2.0
# Hz S RI R 5.0000000000000000e+001
[Number of Ports] 15
[Reference] 5.0000000000000000e+001 5.0000000000000000e+001 5.0000000000000000e+001 5.0000000000000000e+001 5.0000000000000000e+001 5.0000000000000000e+001 5.0000000000000000e+001 5.0000000000000000e+001 5.0000000000000000e+001 5.0000000000000000e+001 5.0000000000000000e+001 5.0000000000000000e+001 5.0000000000000000e+001 5.0000000000000000e+001 5.0000000000000000e+001
! Port[1]=WavePort1:1
! Port[2]=WavePort2:1
! Port[3]=WavePort3:1
! Port[4]=WavePort4:1
! Port[5]=WavePort5:1
! Port[6]=WavePort6:1
! Port[7]=WavePort7:1
! Port[8]=WavePort8:1
! Port[9]=WavePort9:1
! Port[10]=WavePort10:1
! Port[11]=WavePort11:1
! Port[12]=WavePort12:1
! Port[13]=WavePort13:1
! Port[14]=WavePort14:1
! Port[15]=WavePort15:1
! Modal data exported
! Frequency=2.35e+009
2.3500000000000000e+009 -3.6584539158355345e-001 2.2839201985256222e-001 5.8870828282119307e-002 -2.7479130724725608e-003 -1.6504180948474532e-002 4.9914572229900908e-002 -1.4628892950972139e-001 -3.8891500879852971e-002 -1.9165330599280321e-002 -3.5092351664360852e-002 -1.6584054631221461e-002 -3.1790150352982029e-002 5.2859945495820002e-002 2.3987995665197492e-002 1.1099449079881975e-002 -1.6078572211849395e-002 8.2734331561664445e-003 -1.7140442254566249e-002 -1.0123396853587804e-002 -1.6111844642501746e-002 7.5906250110336655e-003 -2.1661433990478427e-003 -1.0479271405197388e-002 4.5859697898166787e-003 -1.6232043045105447e-004 -3.8199576563424137e-003 -1.1333147551647383e-003 -2.2239807730216663e-004 -6.0990322234568840e-003 -1.5149546315507360e-003
 5.8870828282118252e-002 -2.7479130724728054e-003 -3.1295605350905842e-001 1.3264610034035054e-001 5.9328341917899562e-002 -1.0282234003273476e-002 1.0590347362748023e-002 4.2713389408455760e-002 1.5441327131866869e-001 4.9246044488775030e-002 1.7960237552578463e-002 3.6598151724813857e-002 9.4476208774502760e-003 -2.1247545948597329e-002 3.9719054975684384e-002 5.0521254199475722e-002 2.5739192663298775e-003 2.4850517225532182e-002 -9.8077717608262178e-003 4.4525175593087274e-003 5.9962958281471433e-003 1.9793744872398947e-002 4.4476853617553963e-003 -1.2146083525076403e-002 -1.6573929762628079e-003 -2.0472061777469989e-004 -4.2879793110246417e-003 -4.8166319806941795e-003 4.4764659003558131e-003 -4.2225678829561995e-003
 -1.6504180948474639e-002 4.9914572229901047e-002 5.9328341917900124e-002 -1.0282234003274441e-002 -3.7659957768704866e-001 3.8427687808776662e-001 -1.4975488329532180e-002 -3.0104721411355118e-002 -2.7227525986369811e-002 -2.6444310093975899e-002 -1.4417830289421837e-001 -4.7934465749628966e-003 -1.2041424680666032e-002 1.7560068288206204e-002 8.1326274077907490e-003 -2.4295819454346668e-002 -5.2916687836328698e-002 -1.3809465338825190e-003 1.4587617932201169e-002 -9.7369593208387840e-004 1.1329557137073034e-002 -9.7305990679915425e-003 1.3683048966827491e-002 1.0341687615109852e-002 7.1851227802115962e-003 3.2532696129550474e-003 -6.1383595041469390e-003 4.1966204711008127e-003 1.1494402019190113e-003 5.9761866690456970e-003
 -1.4628892950972155e-001 -3.8891500879854220e-002 1.0590347362747887e-002 4.2713389408456107e-002 -1.4975488329532972e-002 -3.0104721411354396e-002 -3.3953209521287986e-001 1.3083806111208135e-001 -7.4000818619133671e-002 -1.9527623947951288e-002 -4.0390615644230445e-002 4.1498329198516794e-002 1.5411505112249943e-001 4.6446789688386392e-002 1.5832470781616493e-003 -4.7200745905339354e-002 -1.3751937670296487e-002 -3.2832534195173929e-002 -5.2876472863327549e-002 -3.9275592535331562e-002 1.6644095259634076e-002 -1.9890523543226679e-002 -1.2936574537831676e-002 1.5524936438242523e-002 -9.9577078827619830e-003 -1.7784366283914013e-002 -9.5093210048805728e-003 4.7315529157721040e-003 -1.1944800360773760e-002 1.7313551146881595e-003
 -1.9165330599280404e-002 -3.5092351664360581e-002 1.5441327131866797e-001 4.9246044488772345e-002 -2.7227525986370064e-002 -2.6444310093975975e-002 -7.4000818619133921e-002 -1.9527623947950726e-002 -3.8855533447618285e-001 2.1362854188078473e-001 -6.2139492930030425e-002 -8.6907904039578363e-003 1.5522142196035048e-002 4.6219899085505410e-002 -1.5253351104386409e-001 -9.3840713542318335e-002 -3.4078252282577604e-002 -3.4116822365725809e-002 1.3073782513755910e-002 -2.4961442957815411e-002 -4.6366684683904855e-002 -5.6086079146036555e-002 3.7520789017710552e-003 2.7521097001028536e-002 8.6414752425249888e-003 -5.1963069580669317e-003 1.0355599933878183e-002 1.8753964601542855e-002 -5.6814286976885654e-003 1.1687536643657390e-002
 -1.6584054631222381e-002 -3.1790150352981369e-002 1.7960237552578921e-002 3.6598151724814898e-002 -1.4417830289421879e-001 -4.7934465749614038e-003 -4.0390615644231416e-002 4.1498329198515427e-002 -6.2139492930032472e-002 -8.6907904039591893e-003 -3.1979262321642621e-001 1.5751773181744652e-001 9.4396571866669065e-003 3.8116013489230417e-002 -2.6764561839585409e-003 -5.1413242894700437e-002 -1.4293673177503854e-001 6.6621335485551204e-003 2.0851861660967506e-002 -1.3034911527809598e-002 1.7447168580367163e-002 -2.6449539398279848e-002 5.0038324810735481e-002 1.6439803499441116e-002 1.3860242672294255e-002 -1.8952166900769923e-004 -1.0921853960328165e-002 1.0418452686154347e-002 1.0178478240458257e-002 1.4302215714270532e-002
 5.2859945495820349e-002 2.3987995665199584e-002 9.4476208774506749e-003 -2.1247545948598037e-002 -1.2041424680666666e-002 1.7560068288206301e-002 1.5411505112249979e-001 4.6446789688388918e-002 1.5522142196035364e-002 4.6219899085505535e-002 9.4396571866660374e-003 3.8116013489230695e-002 -3.7114803937268481e-001 1.9312577574334480e-001 5.6671858989917528e-002 2.8393261658969410e-002 2.0368863629257557e-002 -3.5433527991118749e-002 1.5480237558684659e-001 5.5226744173036461e-002 5.9372395059058697e-003 4.9554966270183062e-002 -1.5777244824920211e-002 -3.1819401166609362e-002 5.3467219987517731e-002 3.1418025261461500e-002 9.7384372369732804e-003 -2.2739179073708295e-002 1.1370982801847500e-002 -1.5882989945225384e-002
 1.1099449079882048e-002 -1.6078572211849707e-002 3.9719054975684218e-002 5.0521254199475736e-002 8.1326274077908340e-003 -2.4295819454346699e-002 1.5832470781624954e-003 -4.7200745905340791e-002 -1.5253351104386287e-001 -9.3840713542319557e-002 -2.6764561839566344e-003 -5.1413242894701519e-002 5.6671858989916800e-002 2.8393261658968674e-002 -1.7346713556737847e-001 -6.1871249536843705e-002 -7.8579182608661244e-002 -2.1570549794292522e-002 3.6962948978336145e-003 -5.2319556091171261e-002 -1.3309773117745069e-001 -1.4345924180148137e-001 1.8631177020960375e-002 4.6667542601347776e-002 1.4858156687083504e-002 -1.7866245110866083e-002 4.1341352762251531e-002 5.9694431631719891e-002 -7.4262323903316867e-003 2.5271052643098164e-002
 8.2734331561658894e-003 -1.7140442254566488e-002 2.5739192663308168e-003 2.4850517225531783e-002 -5.2916687836328330e-002 -1.3809465338822055e-003 -1.3751937670296709e-002 -3.2832534195174422e-002 -3.4078252282577527e-002 -3.4116822365725497e-002 -1.4293673177503752e-001 6.6621335485559912e-003 2.0368863629256447e-002 -3.5433527991118999e-002 -7.8579182608662382e-002 -2.1570549794290853e-002 -3.9321104693744457e-001 4.8669198122147533e-001 -9.3685878209995958e-003 -3.7270837898346315e-002 -1.9713110304072086e-002 -4.6410045326937384e-002 1.1291261469368551e-001 -3.6679711721947429e-002 1.2169978030072214e-002 -1.6793415635946954e-002 1.9096134250552754e-003 2.7397225102970067e-002 4.4034967785317097e-002 2.7735707771495670e-004
 -1.0123396853587711e-002 -1.6111844642502197e-002 -9.8077717608265925e-003 4.4525175593090674e-003 1.4587617932201143e-002 -9.7369593208385260e-004 -5.2876472863328250e-002 -3.9275592535330951e-002 1.3073782513756434e-002 -2.4961442957815199e-002 2.0851861660966843e-002 -1.3034911527810639e-002 1.5480237558684470e-001 5.5226744173035587e-002 3.6962948978325268e-003 -5.2319556091170623e-002 -9.3685878209996097e-003 -3.7270837898346454e-002 -3.0799796014596947e-001 7.5921884307824969e-002 -6.5981631090921103e-002 -3.7813992884305814e-002 2.9377968887582803e-002 -3.6712091724329987e-002 -1.4526996705520206e-001 -6.4522908044754038e-002 8.0311210567409301e-003 4.6205546969457612e-002 1.1378034785256837e-002 3.1045080439680049e-002
 7.5906250110335588e-003 -2.1661433990482078e-003 5.9962958281471624e-003 1.9793744872399283e-002 1.1329557137073025e-002 -9.7305990679920126e-003 1.6644095259633600e-002 -1.9890523543227796e-002 -4.6366684683905257e-002 -5.6086079146037068e-002 1.7447168580367715e-002 -2.6449539398279921e-002 5.9372395059058636e-003 4.9554966270182042e-002 -1.3309773117745255e-001 -1.4345924180148051e-001 -1.9713110304071947e-002 -4.6410045326938223e-002 -6.5981631090922310e-002 -3.7813992884303940e-002 -2.0030397645041820e-001 -5.0164539905794642e-002 7.9660988427534010e-002 2.1962244749734090e-002 -5.0383692972176064e-003 -4.2616752844533728e-002 1.4568208398858179e-001 1.0340102473207330e-001 1.7311007750059206e-002 3.8121771737921445e-002
 -1.0479271405197306e-002 4.5859697898165651e-003 4.4476853617549383e-003 -1.2146083525076555e-002 1.3683048966827397e-002 1.0341687615109769e-002 -1.2936574537831648e-002 1.5524936438242452e-002 3.7520789017711389e-003 2.7521097001028293e-002 5.0038324810735328e-002 1.6439803499441165e-002 -1.5777244824920530e-002 -3.1819401166609466e-002 1.8631177020960489e-002 4.6667542601347416e-002 1.1291261469368694e-001 -3.6679711721946534e-002 2.9377968887583834e-002 -3.6712091724330188e-002 7.9660988427533566e-002 2.1962244749733482e-002 -3.9157854330860065e-001 4.7135607856000183e-001 1.6650702011390114e-002 2.9298048864036540e-002 -3.0101086810374631e-002 -3.3538823728899374e-002 -1.1229313019509699e-001 3.6842635520898205e-002
 -1.6232043045108342e-004 -3.8199576563426414e-003 -1.6573929762628966e-003 -2.0472061777461424e-004 7.1851227802116656e-003 3.2532696129551814e-003 -9.9577078827619916e-003 -1.7784366283914107e-002 8.6414752425252594e-003 -5.1963069580667131e-003 1.3860242672294194e-002 -1.8952166900729981e-004 5.3467219987517745e-002 3.1418025261460848e-002 1.4858156687083341e-002 -1.7866245110866312e-002 1.2169978030072328e-002 -1.6793415635946898e-002 -1.4526996705520209e-001 -6.4522908044755911e-002 -5.0383692972187201e-003 -4.2616752844533944e-002 1.6650702011389341e-002 2.9298048864036613e-002 -3.2003268683389297e-001 1.3526087441078088e-001 6.5526476167568001e-002 6.1323325154242613e-003 2.1022677133522540e-002 -4.7478315308867744e-002
 -1.1333147551648225e-003 -2.2239807730225889e-004 -4.2879793110246287e-003 -4.8166319806941978e-003 -6.1383595041468600e-003 4.1966204711006297e-003 -9.5093210048807029e-003 4.7315529157721482e-003 1.0355599933878055e-002 1.8753964601543029e-002 -1.0921853960328312e-002 1.0418452686154352e-002 9.7384372369731693e-003 -2.2739179073708832e-002 4.1341352762250323e-002 5.9694431631720585e-002 1.9096134250543395e-003 2.7397225102969845e-002 8.0311210567411279e-003 4.6205546969458888e-002 1.4568208398858015e-001 1.0340102473207709e-001 -3.0101086810376078e-002 -3.3538823728898652e-002 6.5526476167569236e-002 6.1323325154263881e-003 -3.0804108259957430e-001 1.1598859300869815e-001 -6.0043518311063221e-002 9.4269803378332455e-003
 -6.0990322234568874e-003 -1.5149546315508867e-003 4.4764659003557888e-003 -4.2225678829562524e-003 1.1494402019190089e-003 5.9761866690456189e-003 -1.1944800360774027e-002 1.7313551146876656e-003 -5.6814286976886322e-003 1.1687536643657521e-002 1.0178478240457910e-002 1.4302215714270520e-002 1.1370982801847456e-002 -1.5882989945225572e-002 -7.4262323903319487e-003 2.5271052643098403e-002 4.4034967785317361e-002 2.7735707771538284e-004 1.1378034785256261e-002 3.1045080439679969e-002 1.7311007750057665e-002 3.8121771737922708e-002 -1.1229313019509815e-001 3.6842635520897539e-002 2.1022677133522551e-002 -4.7478315308867862e-002 -6.0043518311063838e-002 9.4269803378361303e-003 -3.8135424930879924e-001 4.4092030027897999e-001
! Terminal data exported
! Data is renormalized
! Frequency=2.35e+009
2.3500000000000000e+009 -5.2757879732590651e-001 1.9382341783471183e-001 5.0384015236947848e-002 -6.1590456811078608e-004 -1.7933447155399154e-002 4.1606521464287158e-002 1.1939803733848728e-001 3.8941661634683038e-002 -1.1190006982489554e-002 -2.8384486875113239e-002 1.0650615898048141e-002 2.8339334405599978e-002 -4.0161409751403317e-002 -2.0146524648244398e-002 -9.6905720729462842e-003 1.0478764618628659e-002 8.8164194039156412e-003 -1.1628155116634188e-002 6.7246947283197550e-003 1.1913360354528684e-002 4.9124247790552364e-003 -1.8803717423244287e-004 -8.3299086997406634e-003 1.5786669755694532e-003 2.2798512460682615e-004 -2.1799103274316813e-003 1.3701799267030134e-004 -4.4154633289227019e-004 4.0363445821752020e-003 2.1092745738091894e-003
 5.0384015236947001e-002 -6.1590456811256168e-004 -4.7713982208022770e-001 1.1678357379171633e-001 5.0448687305416996e-002 -5.4012018086850412e-003 -4.8986818939862663e-003 -3.4361098984897302e-002 1.2717388523700995e-001 4.6527690108586643e-002 -1.1170242868999081e-002 -3.0077831365169738e-002 -8.8112667271647745e-003 1.4085830552642625e-002 -3.2722546849191479e-002 -3.9914561172079338e-002 -1.1296144071299753e-003 1.7782460281500476e-002 6.6932759612510053e-003 -1.6844623238914617e-003 5.5168544566925395e-003 1.3577320780446786e-002 4.1779095510130647e-003 -7.6248333828743678e-003 -2.2330570089232782e-004 -4.2119741186154471e-004 -4.1672606782025513e-003 -2.7766733052660016e-003 -3.3796872418512007e-003 2.4965838338720271e-003
 -1.7933447155397679e-002 4.1606521464287970e-002 5.0448687305417468e-002 -5.4012018086862495e-003 -5.5062046500086914e-001 3.2038860696753785e-001 8.7310084582350057e-003 2.7083232021947030e-002 -1.7724812190905815e-002 -2.2698525006248905e-002 1.1875193025444503e-001 1.5177196744151210e-002 1.1320147151279400e-002 -1.2085924424803421e-002 -8.4874030552805624e-003 1.7638390242913835e-002 -4.0238935400820491e-002 -6.4326568821904857e-003 -1.0905549787918427e-002 -1.0512752671081511e-003 8.7317854042371131e-003 -6.1191158655400351e-003 8.8051949165670190e-003 9.3793472919796988e-003 4.6671903338195674e-003 3.2978530227505049e-003 -4.4512280157413550e-003 2.5809524242998696e-003 8.1270280030622429e-005 -4.6318401086382884e-003
 1.1939803733848837e-001 3.8941661634681220e-002 -4.8986818939858907e-003 -3.4361098984897559e-002 8.7310084582353769e-003 2.7083232021946634e-002 -4.9721791321973191e-001 1.1595217940774881e-001 6.2181389108575430e-002 1.6308768711801373e-002 -3.6125955702027424e-002 3.6890383555922876e-002 1.2566278747481652e-001 4.3556255802672875e-002 2.9111725403110976e-003 -3.7030982037410849e-002 7.6678460005427914e-003 2.8059491260588546e-002 -4.1703459423925622e-002 -3.1354843136807760e-002 -1.3047782958853791e-002 1.3025134775765654e-002 1.2105415844825208e-002 -9.9664676172980405e-003 6.8115030424416821e-003 1.3062081327495407e-002 6.3017876195797266e-003 -1.9176774343202928e-003 -9.1121509972010538e-003 -5.6326664099103779e-004
 -1.1190006982490631e-002 -2.8384486875112698e-002 1.2717388523700943e-001 4.6527690108583722e-002 -1.7724812190906013e-002 -2.2698525006249099e-002 6.2181389108575895e-002 1.6308768711800252e-002 -5.4283065036837475e-001 1.8689538765557484e-001 5.1586961410749151e-002 7.3199659523339820e-003 -8.9131720137150261e-003 -3.5124744417449158e-002 1.3003957983088937e-001 7.9385572216967973e-002 -2.1986405936419092e-002 -2.7512647056031174e-002 -1.0902936958762908e-002 1.6305876831664838e-002 -3.8741668593243669e-002 -4.1972576570548661e-002 -9.0407902118300881e-006 1.9262127578413089e-002 5.7764883232327624e-003 -2.2359618966391217e-003 8.3818820481392897e-003 1.2012758189751541e-002 4.9640240924102358e-003 -7.3754467980115482e-003
 1.0650615898048880e-002 2.8339334405599468e-002 -1.1170242868998424e-002 -3.0077831365171011e-002 1.1875193025444496e-001 1.5177196744154768e-002 -3.6125955702029151e-002 3.6890383555920767e-002 5.1586961410750490e-002 7.3199659523370359e-003 -4.8134619578412186e-001 1.3535977197087246e-001 5.6188975686803418e-003 3.2482951250652849e-002 3.6685577313796004e-005 -4.1698553682980144e-002 1.1785684306496710e-001 6.8396346759646452e-003 1.7532326207508449e-002 -8.6755807685745083e-003 -1.4476402900488513e-002 1.9111065011218557e-002 -3.8420762480660287e-002 -1.7545224977642229e-002 -1.0506953626725858e-002 -1.2726165411101086e-003 8.2549761062617067e-003 -6.6743589291595289e-003 6.2693419492238084e-003 1.2448772728049610e-002
 -4.0161409751404191e-002 -2.0146524648244641e-002 -8.8112667271650243e-003 1.4085830552643206e-002 1.1320147151279929e-002 -1.2085924424803393e-002 1.2566278747481716e-001 4.3556255802673451e-002 -8.9131720137154719e-003 -3.5124744417449089e-002 5.6188975686808596e-003 3.2482951250652772e-002 -5.2725646188915010e-001 1.6813770506359391e-001 5.1781037754365065e-002 2.1404959278017808e-002 -2.0774473461462505e-002 3.1464294880520383e-002 1.2745541761075765e-001 4.9891925772543713e-002 -3.5389163794132864e-003 -3.7907855606957475e-002 9.8778967875551588e-003 2.6945521814087093e-002 -4.1398973948470551e-002 -2.5291389867402429e-002 -8.5428556637900301e-003 1.4982620250943861e-002 1.0772029751892597e-002 -1.0812312616729582e-002
 -9.6905720729455937e-003 1.0478764618629536e-002 -3.2722546849192846e-002 -3.9914561172078047e-002 -8.4874030552800368e-003 1.7638390242914085e-002 2.9111725403101925e-003 -3.7030982037412202e-002 1.3003957983089098e-001 7.9385572216964490e-002 3.6685577312443787e-005 -4.1698553682981102e-002 5.1781037754365246e-002 2.1404959278015435e-002 -3.5460754501991015e-001 -4.2350573730683128e-002 6.6984137819388806e-002 1.9030574375361448e-002 3.5101154154387453e-003 -4.0894265646895189e-002 1.2224050071494423e-001 1.2045373999893985e-001 -1.1227405637355048e-002 -3.6573332438572373e-002 -1.1912217496691810e-002 1.1898348963393680e-002 -3.5946828182975371e-002 -4.5738186638786496e-002 -7.9129490520543737e-003 1.8382837030725813e-002
 8.8164194039147947e-003 -1.1628155116634798e-002 -1.1296144071290348e-003 1.7782460281500274e-002 -4.0238935400820193e-002 -6.4326568821902038e-003 7.6678460005433196e-003 2.8059491260588747e-002 -2.1986405936419071e-002 -2.7512647056030771e-002 1.1785684306496660e-001 6.8396346759588634e-003 -2.0774473461461399e-002 3.1464294880520806e-002 6.6984137819389222e-002 1.9030574375362028e-002 -5.7498351504151501e-001 4.0234676499656225e-001 5.2085510212313817e-003 3.1310391036984388e-002 -1.2163765626247394e-002 -3.6344510809774709e-002 9.5327430046138181e-002 -1.5880168037716896e-002 1.1370642916329516e-002 -1.1464154403522090e-002 -1.0711302329694549e-003 1.9832456871405238e-002 -3.4473315946305066e-002 -5.7816236871991097e-003
 6.7246947283203119e-003 1.1913360354528621e-002 6.6932759612512906e-003 -1.6844623238918509e-003 -1.0905549787918432e-002 -1.0512752671080422e-003 -4.1703459423927204e-002 -3.1354843136805963e-002 -1.0902936958762984e-002 1.6305876831664817e-002 1.7532326207507377e-002 -8.6755807685764564e-003 1.2745541761075710e-001 4.9891925772540702e-002 3.5101154154383173e-003 -4.0894265646894565e-002 5.2085510212318232e-003 3.1310391036984374e-002 -4.6935320733324548e-001 7.2078960022351035e-002 6.0320767543960707e-002 2.9340760174614941e-002 -2.7574975969709717e-002 3.2048995109394372e-002 1.2094843930707243e-001 5.7928860332860613e-002 -3.8149355307290017e-003 -3.6130137054985939e-002 6.3758054240072304e-003 2.7411365604138545e-002
